
T0D8C 000:048 SEGGER J-Link V4.74a Log File (0001ms, 0049ms total)
T0D8C 000:048 DLL Compiled: Jul 23 2013 08:47:58 (0001ms, 0049ms total)
T0D8C 000:048 Logging started @ 2014-05-07 11:20 (0001ms, 0049ms total)
T0D8C 000:049 JLINK_SetWarnOutHandler(...) (0000ms, 0049ms total)
T0D8C 000:049 JLINK_OpenEx(...)
Firmware: J-Link ARM V8 compiled Jul 17 2013 11:24:15
Hardware: V8.00
S/N: 99999994
Feature(s): RDI,FlashDL,FlashBP,JFlash,GDBFULL  returns O.K. (0024ms, 0073ms total)
T0D8C 000:073 JLINK_SetErrorOutHandler(...) (0000ms, 0073ms total)
T0D8C 000:073 JLINK_ExecCommand("Device = LPC1768", ...)
                JLINK_AddMirrorAreaEx(Addr = 0x00000000, Size = 0x00000000) (0000ms, 0000ms total)
              Device "LPC1768" selected (512 KB flash, 32 KB RAM).  returns 0x00 (0005ms, 0078ms total)
T0D8C 000:078 JLINK_ExecCommand("ProjectFile = "E:\139\139project_LPC1768_V1.8.git.current\Project\JLinkSettings.ini"", ...)  returns 0x00 (0000ms, 0078ms total)
T0D8C 000:081 JLINK_ExecCommand("DisableConnectionTimeout", ...)  returns 0x01 (0000ms, 0078ms total)
T0D8C 000:081 JLINK_TIF_Select(JLINKARM_TIF_JTAG)  returns 0x00 (0000ms, 0078ms total)
T0D8C 000:081 JLINK_SetSpeed(2000) (0001ms, 0079ms total)
T0D8C 000:082 JLINK_GetHardwareVersion()  returns 0x13880 (0000ms, 0079ms total)
T0D8C 000:082 JLINK_GetDLLVersion()  returns 47401 (0000ms, 0079ms total)
T0D8C 000:082 JLINK_GetFirmwareString(...) (0000ms, 0079ms total)
T0D8C 000:088 JLINK_GetDLLVersion()  returns 47401 (0000ms, 0079ms total)
T0D8C 000:088 JLINK_GetCompileDateTime() (0000ms, 0079ms total)
T0D8C 000:090 JLINK_GetFirmwareString(...) (0000ms, 0079ms total)
T0D8C 000:094 JLINK_GetHardwareVersion()  returns 0x13880 (0000ms, 0079ms total)
T0D8C 000:102 JLINK_GetIdData(...) >0x2F8 JTAG>TotalIRLen = 4, IRPrint = 0x01 >0x30 JTAG> >0x210 JTAG> >0x78 JTAG> >0x40 JTAG> >0x40 JTAG> >0x48 JTAG> >0x40 JTAG> >0x40 JTAG> >0x40 JTAG> >0x48 JTAG> >0x40 JTAG> >0x40 JTAG> >0x40 JTAG> >0x30 JTAG> >0x40 JTAG> >0x48 JTAG> >0x40 JTAG> >0x30 JTAG> >0x78 JTAG> >0x40 JTAG> >0x40 JTAG> >0x48 JTAG> >0x40 JTAG> >0x40 JTAG> >0x40 JTAG> >0x48 JTAG> >0x40 JTAG> >0x40 JTAG> >0x30 JTAG> >0x40 JTAG> >0x40 JTAG> >0x40 JTAG> >0x40 JTAG> >0x40 JTAG> >0x48 JTAG>
 >0x40 JTAG> >0x78 JTAG> >0x40 JTAG> >0x30 JTAG> >0x40 JTAG> >0x40 JTAG> >0x40 JTAG> >0x40 JTAG> >0x40 JTAG> >0x48 JTAG> >0x40 JTAG> >0x78 JTAG> >0x40 JTAG> >0x30 JTAG> >0x40 JTAG> >0x48 JTAG> >0x40 JTAG> >0x40 JTAG> >0x40 JTAG> >0x30 JTAG> >0x40 JTAG> >0x48 JTAG> >0x40 JTAG>Found Cortex-M3 r2p0, Little endian. >0x48 JTAG> >0x48 JTAG> >0x40 JTAG> >0x40 JTAG> >0x30 JTAG> >0x30 JTAG> >0x48 JTAG> >0x40 JTAG> >0x78 JTAG> >0x40 JTAG> >0x30 JTAG> >0x40 JTAG> >0x48 JTAG> >0x40 JTAG> >0x40 JTAG> >0x40 JTAG>
 >0x30 JTAG> >0x40 JTAG> >0x48 JTAG> >0x40 JTAG>TPIU fitted. >0x40 JTAG> >0x40 JTAG> >0x30 JTAG> >0x40 JTAG> >0x48 JTAG> >0x40 JTAG>ETM fitted. >0x40 JTAG> >0x40 JTAG> >0x30 JTAG> >0x40 JTAG> >0x48 JTAG> >0x40 JTAG> >0x40 JTAG> >0x40 JTAG> >0x30 JTAG> >0x40 JTAG> >0x48 JTAG> >0x40 JTAG>FPUnit: 6 code (BP) slots and 2 literal slots >0x40 JTAG> >0x40 JTAG> >0x30 JTAG> >0x40 JTAG> >0x48 JTAG> >0x40 JTAG> >0x40 JTAG> >0x40 JTAG> >0x30 JTAG> >0x40 JTAG> >0x48 JTAG> >0x40 JTAG> >0x40 JTAG> >0x40 JTAG>
 >0x30 JTAG> >0x30 JTAG> >0x48 JTAG> >0x40 JTAG> ScanLen=4 NumDevices=1 aId[0]=0x4BA00477 aIrRead[0]=0 aScanLen[0]=0 aScanRead[0]=0 (0141ms, 0220ms total)
T0D8C 000:244 JLINK_JTAG_GetDeviceID(DeviceIndex = 0)  returns 0x4BA00477 (0000ms, 0220ms total)
T0D8C 000:244 JLINK_JTAG_GetDeviceInfo(DeviceIndex = 0)  returns 0x00 (0000ms, 0220ms total)
T0D8C 000:244 JLINK_GetDebugInfo(0x100) -- Value=0xE00FF003  returns 0x00 (0000ms, 0220ms total)
T0D8C 000:247 JLINK_ReadMem (0xE00FFFF0, 0x0010 Bytes, ...) -- CPU is running -- CPU_ReadMem(16 bytes @ 0xE00FFFF0) -- Data:  0D 00 00 00 10 00 00 00 05 00 00 00 B1 00 00 00  returns 0x00 (0004ms, 0224ms total)
T0D8C 000:251 JLINK_ReadMem (0xE00FFFD0, 0x0020 Bytes, ...) -- CPU is running -- CPU_ReadMem(32 bytes @ 0xE00FFFD0) -- Data:  00 00 00 00 00 00 00 00 00 00 00 00 00 00 00 00 ...  returns 0x00 (0001ms, 0225ms total)
T0D8C 000:252 JLINK_ReadMem (0xE00FF000, 0x0018 Bytes, ...) -- CPU is running -- CPU_ReadMem(24 bytes @ 0xE00FF000) -- Data:  03 F0 F0 FF 03 20 F0 FF 03 30 F0 FF 03 10 F0 FF ...  returns 0x00 (0001ms, 0226ms total)
T0D8C 000:253 JLINK_ReadMemU32(0xE000ED00, 0x0001 Items, ...) -- CPU is running -- CPU_ReadMem(4 bytes @ 0xE000ED00) -- Data:  30 C2 2F 41  returns 0x01 (0001ms, 0227ms total)
T0D8C 000:254 JLINK_SetResetType(JLINKARM_RESET_TYPE_NORMAL)  returns ??? (0000ms, 0227ms total)
T0D8C 000:254 JLINK_Reset() >0x78 JTAG> >0x78 JTAG> >0x40 JTAG> >0x40 JTAG> >0x48 JTAG> >0x40 JTAG> >0x40 JTAG> >0x40 JTAG> >0x48 JTAG> >0x40 JTAG> >0x40 JTAG> >0x30 JTAG> >0x40 JTAG> >0x40 JTAG> >0x40 JTAG> >0x40 JTAG> >0x40 JTAG> >0x48 JTAG> >0x40 JTAG> >0x78 JTAG> >0x40 JTAG> >0x30 JTAG> >0x40 JTAG> >0x40 JTAG> >0x40 JTAG> >0x40 JTAG> >0x40 JTAG> >0x48 JTAG> >0x40 JTAG> >0x78 JTAG> >0x40 JTAG> >0x30 JTAG> >0x40 JTAG> >0x48 JTAG> >0x40 JTAG> >0x40 JTAG> >0x40 JTAG> >0x30 JTAG> >0x40 JTAG> >0x48 JTAG>
 >0x40 JTAG>Found Cortex-M3 r2p0, Little endian. >0x48 JTAG> >0x48 JTAG> >0x40 JTAG> >0x40 JTAG> >0x30 JTAG> >0x30 JTAG> >0x48 JTAG> >0x40 JTAG> >0x78 JTAG> >0x40 JTAG> >0x30 JTAG> >0x40 JTAG> >0x48 JTAG> >0x40 JTAG> >0x40 JTAG> >0x40 JTAG> >0x30 JTAG> >0x40 JTAG> >0x48 JTAG> >0x40 JTAG>TPIU fitted.ETM fitted. >0x40 JTAG> >0x40 JTAG> >0x30 JTAG> >0x40 JTAG> >0x48 JTAG> >0x40 JTAG> >0x40 JTAG> >0x40 JTAG> >0x30 JTAG> >0x40 JTAG> >0x48 JTAG> >0x40 JTAG>FPUnit: 6 code (BP) slots and 2 literal slots
 >0x40 JTAG> >0x40 JTAG> >0x30 JTAG> >0x40 JTAG> >0x48 JTAG> >0x40 JTAG> >0x40 JTAG> >0x40 JTAG> >0x30 JTAG> >0x40 JTAG> >0x48 JTAG> >0x40 JTAG> >0x40 JTAG> >0x40 JTAG> >0x30 JTAG> >0x30 JTAG> >0x48 JTAG> >0x40 JTAG> -- CPU is running -- CPU_WriteMem(4 bytes @ 0xE000EDF0) -- CPU is running -- CPU_WriteMem(4 bytes @ 0xE000EDFC) -- CPU is running -- CPU_WriteMem(4 bytes @ 0xE000ED0C) -- CPU is running -- CPU_ReadMem(4 bytes @ 0xE000EDF0) -- CPU is running -- CPU_ReadMem(4 bytes @ 0xE000EDF0)
 -- CPU is running -- CPU_WriteMem(4 bytes @ 0xE000EDF0) -- CPU is running -- CPU_WriteMem(4 bytes @ 0xE000EDFC) -- CPU is running -- CPU_ReadMem(4 bytes @ 0xE000EDF0) >0xB8 JTAG> >0x40 JTAG> >0x30 JTAG> >0x40 JTAG> >0x48 JTAG> >0x40 JTAG> -- CPU_WriteMem(4 bytes @ 0xE000EDFC) -- CPU_WriteMem(4 bytes @ 0xE0001028) -- CPU_WriteMem(4 bytes @ 0xE0001038) -- CPU_WriteMem(4 bytes @ 0xE0001048) -- CPU_WriteMem(4 bytes @ 0xE0001058) -- CPU_WriteMem(4 bytes @ 0xE000EDFC) -- CPU_WriteMem(4 bytes @ 0xE0001028)
 -- CPU_WriteMem(4 bytes @ 0xE0001028) -- CPU_WriteMem(4 bytes @ 0xE000EDFC) -- CPU_WriteMem(4 bytes @ 0xE0001028) -- CPU_WriteMem(4 bytes @ 0xE0001028) -- CPU_WriteMem(4 bytes @ 0xE000EDFC) -- CPU_WriteMem(4 bytes @ 0xE0001028) -- CPU_WriteMem(4 bytes @ 0xE0001028) -- CPU_WriteMem(4 bytes @ 0xE000EDFC) -- CPU_WriteMem(4 bytes @ 0xE0001028) -- CPU_WriteMem(4 bytes @ 0xE0001028) -- CPU_WriteMem(4 bytes @ 0xE000EDFC) -- CPU_WriteMem(4 bytes @ 0xE0001050) -- CPU_WriteMem(4 bytes @ 0xE0001054)
 -- CPU_WriteMem(4 bytes @ 0xE0001058) -- CPU_WriteMem(4 bytes @ 0xE000EDFC) -- CPU_WriteMem(4 bytes @ 0xE0001058) -- CPU_ReadMem(4 bytes @ 0x00000004) -- CPU_ReadMem(4 bytes @ 0xE0002000) -- CPU_ReadMem(4 bytes @ 0xE0002008) -- CPU_ReadMem(4 bytes @ 0xE000200C) -- CPU_ReadMem(4 bytes @ 0xE0002010) -- CPU_ReadMem(4 bytes @ 0xE0002014) -- CPU_ReadMem(4 bytes @ 0xE0002018) -- CPU_ReadMem(4 bytes @ 0xE000201C) -- CPU_WriteMem(4 bytes @ 0xE0002000) -- CPU_WriteMem(4 bytes @ 0xE0002008)
 -- CPU_WriteMem(4 bytes @ 0xE000200C) -- CPU_WriteMem(4 bytes @ 0xE0002010) -- CPU_WriteMem(4 bytes @ 0xE0002014) -- CPU_WriteMem(4 bytes @ 0xE0002018) -- CPU_WriteMem(4 bytes @ 0xE000201C)
                JLINK_ReadMemHW(0x400FC040, 0x0004 Bytes, ...) -- CPU_ReadMem(4 bytes @ 0x400FC040) -- Data:  01 00 00 00  returns 0x00 (0001ms, 0001ms total)
               -- MA0 is in flash -- Unmirror addr 0x00000258 -- CPU_WriteMem(4 bytes @ 0xE0002000) -- CPU_WriteMem(4 bytes @ 0xE0002008) -- CPU_WriteMem(4 bytes @ 0xE000200C) -- CPU_WriteMem(4 bytes @ 0xE0002010) -- CPU_WriteMem(4 bytes @ 0xE0002014) -- CPU_WriteMem(4 bytes @ 0xE0002018) -- CPU_WriteMem(4 bytes @ 0xE000201C) -- CPU_WriteMem(4 bytes @ 0xE0002000) >0x06 JTAG> (0404ms, 0631ms total)
T0D8C 000:658 JLINK_Halt()  returns 0x00 (0000ms, 0631ms total)
T0D8C 000:658 JLINK_IsHalted() -- Unmirror addr 0x00000258  returns TRUE (0000ms, 0631ms total)
T0D8C 000:658 JLINK_ReadMemU32(0xE000EDF0, 0x0001 Items, ...) -- CPU_ReadMem(4 bytes @ 0xE000EDF0) -- Data:  03 00 03 00  returns 0x01 (0001ms, 0632ms total)
T0D8C 000:659 JLINK_WriteU32(0xE000EDF0, 0xA05F0003) -- CPU_WriteMem(4 bytes @ 0xE000EDF0) -- Invalidate MA0 status  returns 0x00 (0001ms, 0633ms total)
T0D8C 000:660 JLINK_WriteU32(0xE000EDFC, 0x01000000) -- CPU_WriteMem(4 bytes @ 0xE000EDFC)  returns 0x00 (0001ms, 0634ms total)
T0D8C 000:680 JLINK_GetHWStatus(...)  returns 0x00 (0001ms, 0635ms total)
T0D8C 000:689 JLINK_GetNumBPUnits(Type = 0xFFFFFF00)  returns 0x06 (0000ms, 0635ms total)
T0D8C 000:689 JLINK_GetNumBPUnits(Type = 0xF0)  returns 0x2000 (0000ms, 0635ms total)
T0D8C 000:689 JLINK_GetNumWPUnits()  returns 0x04 (0000ms, 0635ms total)
T0D8C 000:697 JLINK_GetSpeed()  returns 0x7D0 (0000ms, 0635ms total)
T0D8C 000:705 JLINK_ReadMemU32(0xE000E004, 0x0001 Items, ...) -- CPU_ReadMem(4 bytes @ 0xE000E004) -- Data:  01 00 00 00  returns 0x01 (0001ms, 0636ms total)
T0D8C 000:706 JLINK_ReadMemU32(0xE000E004, 0x0001 Items, ...) -- CPU_ReadMem(4 bytes @ 0xE000E004) -- Data:  01 00 00 00  returns 0x01 (0001ms, 0637ms total)
T0D8C 000:707 JLINK_WriteMem(0xE0001000, 0x001C Bytes, ...) -- Data:  01 00 00 00 00 00 00 00 00 00 00 00 00 00 00 00 ... -- CPU_WriteMem(28 bytes @ 0xE0001000)  returns 0x1C (0001ms, 0638ms total)
T0D8C 000:708 JLINK_ReadMem (0xE0001000, 0x001C Bytes, ...) -- CPU_ReadMem(28 bytes @ 0xE0001000) -- Data:  01 00 00 40 00 00 00 00 00 00 00 00 00 00 00 00 ...  returns 0x00 (0001ms, 0639ms total)
T0D8C 000:709 JLINK_Halt()  returns 0x00 (0000ms, 0639ms total)
T0D8C 000:709 JLINK_IsHalted()
                JLINK_ReadMemHW(0x400FC040, 0x0004 Bytes, ...) -- CPU_ReadMem(4 bytes @ 0x400FC040) -- Data:  01 00 00 00  returns 0x00 (0001ms, 0001ms total)
               -- MA0 is in flash -- Unmirror addr 0x00000258  returns TRUE (0001ms, 0640ms total)
T0D8C 000:712 JLINK_WriteMem(0x10000000, 0x01D8 Bytes, ...) -- Data:  00 BE 0A E0 0D 78 2D 06 68 40 08 24 40 00 00 D3 ... -- CPU_WriteMem(472 bytes @ 0x10000000)  returns 0x1D8 (0007ms, 0646ms total)
T0D8C 000:719 JLINK_WriteReg(R0, 0x00000000)  returns 0x00 (0000ms, 0646ms total)
T0D8C 000:719 JLINK_WriteReg(R1, 0x00B71B00)  returns 0x00 (0000ms, 0646ms total)
T0D8C 000:719 JLINK_WriteReg(R2, 0x00000001)  returns 0x00 (0000ms, 0646ms total)
T0D8C 000:719 JLINK_WriteReg(R3, 0x00000000)  returns 0x00 (0000ms, 0646ms total)
T0D8C 000:719 JLINK_WriteReg(R4, 0x00000000)  returns 0x00 (0000ms, 0646ms total)
T0D8C 000:719 JLINK_WriteReg(R5, 0x00000000)  returns 0x00 (0000ms, 0646ms total)
T0D8C 000:719 JLINK_WriteReg(R6, 0x00000000)  returns 0x00 (0000ms, 0646ms total)
T0D8C 000:719 JLINK_WriteReg(R7, 0x00000000)  returns 0x00 (0000ms, 0646ms total)
T0D8C 000:719 JLINK_WriteReg(R8, 0x00000000)  returns 0x00 (0000ms, 0646ms total)
T0D8C 000:719 JLINK_WriteReg(R9, 0x100001D0)  returns 0x00 (0000ms, 0646ms total)
T0D8C 000:719 JLINK_WriteReg(R10, 0x00000000)  returns 0x00 (0000ms, 0646ms total)
T0D8C 000:719 JLINK_WriteReg(R11, 0x00000000)  returns 0x00 (0000ms, 0646ms total)
T0D8C 000:719 JLINK_WriteReg(R12, 0x00000000)  returns 0x00 (0000ms, 0646ms total)
T0D8C 000:719 JLINK_WriteReg(R13 (SP), 0x10000800)  returns 0x00 (0000ms, 0646ms total)
T0D8C 000:719 JLINK_WriteReg(R14, 0x10000001)  returns 0x00 (0000ms, 0646ms total)
T0D8C 000:719 JLINK_WriteReg(R15 (PC), 0x10000044)  returns 0x00 (0000ms, 0646ms total)
T0D8C 000:719 JLINK_WriteReg(XPSR, 0x01000000)  returns 0x00 (0000ms, 0646ms total)
T0D8C 000:719 JLINK_WriteReg(MSP, 0x10000800)  returns 0x00 (0001ms, 0647ms total)
T0D8C 000:720 JLINK_WriteReg(PSP, 0x10000800)  returns 0x00 (0000ms, 0647ms total)
T0D8C 000:720 JLINK_WriteReg(CFBP, 0x00000000)  returns 0x00 (0000ms, 0647ms total)
T0D8C 000:720 JLINK_SetBPEx(Addr = 0x10000000, Type = 0xFFFFFFF2)  returns 0x00000001 (0000ms, 0647ms total)
T0D8C 000:720 JLINK_Go() -- Invalidate MA0 status -- CPU_WriteMem(4 bytes @ 0xE0002008) -- CPU_WriteMem(4 bytes @ 0xE000200C) -- CPU_WriteMem(4 bytes @ 0xE0002010) -- CPU_WriteMem(4 bytes @ 0xE0002014) -- CPU_WriteMem(4 bytes @ 0xE0002018) -- CPU_WriteMem(4 bytes @ 0xE000201C) (0009ms, 0656ms total)
T0D8C 000:729 JLINK_IsHalted()  returns TRUE (0005ms, 0661ms total)
T0D8C 000:734 JLINK_ReadReg(R15 (PC))  returns 0x10000000 (0000ms, 0656ms total)
T0D8C 000:734 JLINK_ClrBPEx(BPHandle = 0x00000001)  returns 0x00 (0000ms, 0656ms total)
T0D8C 000:734 JLINK_ReadReg(R0)  returns 0x00000000 (0000ms, 0656ms total)
T0D8C 000:735 JLINK_WriteReg(R0, 0x00000000)  returns 0x00 (0000ms, 0656ms total)
T0D8C 000:735 JLINK_WriteReg(R1, 0x00001000)  returns 0x00 (0000ms, 0656ms total)
T0D8C 000:735 JLINK_WriteReg(R2, 0x000000FF)  returns 0x00 (0000ms, 0656ms total)
T0D8C 000:735 JLINK_WriteReg(R3, 0x00000000)  returns 0x00 (0000ms, 0656ms total)
T0D8C 000:735 JLINK_WriteReg(R4, 0x00000000)  returns 0x00 (0000ms, 0656ms total)
T0D8C 000:735 JLINK_WriteReg(R5, 0x00000000)  returns 0x00 (0000ms, 0656ms total)
T0D8C 000:735 JLINK_WriteReg(R6, 0x00000000)  returns 0x00 (0000ms, 0656ms total)
T0D8C 000:735 JLINK_WriteReg(R7, 0x00000000)  returns 0x00 (0000ms, 0656ms total)
T0D8C 000:735 JLINK_WriteReg(R8, 0x00000000)  returns 0x00 (0000ms, 0656ms total)
T0D8C 000:735 JLINK_WriteReg(R9, 0x100001D0)  returns 0x00 (0000ms, 0656ms total)
T0D8C 000:735 JLINK_WriteReg(R10, 0x00000000)  returns 0x00 (0000ms, 0656ms total)
T0D8C 000:735 JLINK_WriteReg(R11, 0x00000000)  returns 0x00 (0000ms, 0656ms total)
T0D8C 000:735 JLINK_WriteReg(R12, 0x00000000)  returns 0x00 (0000ms, 0656ms total)
T0D8C 000:735 JLINK_WriteReg(R13 (SP), 0x10000800)  returns 0x00 (0000ms, 0656ms total)
T0D8C 000:735 JLINK_WriteReg(R14, 0x10000001)  returns 0x00 (0000ms, 0656ms total)
T0D8C 000:735 JLINK_WriteReg(R15 (PC), 0x10000020)  returns 0x00 (0000ms, 0656ms total)
T0D8C 000:735 JLINK_WriteReg(XPSR, 0x01000000)  returns 0x00 (0000ms, 0656ms total)
T0D8C 000:735 JLINK_WriteReg(MSP, 0x10000800)  returns 0x00 (0000ms, 0656ms total)
T0D8C 000:735 JLINK_WriteReg(PSP, 0x10000800)  returns 0x00 (0000ms, 0656ms total)
T0D8C 000:735 JLINK_WriteReg(CFBP, 0x00000000)  returns 0x00 (0000ms, 0656ms total)
T0D8C 000:735 JLINK_SetBPEx(Addr = 0x10000000, Type = 0xFFFFFFF2)  returns 0x00000002 (0000ms, 0656ms total)
T0D8C 000:735 JLINK_Go() (0002ms, 0658ms total)
T0D8C 000:737 JLINK_IsHalted()  returns TRUE (0005ms, 0663ms total)
T0D8C 000:742 JLINK_ReadReg(R15 (PC))  returns 0x10000000 (0000ms, 0658ms total)
T0D8C 000:742 JLINK_ClrBPEx(BPHandle = 0x00000002)  returns 0x00 (0000ms, 0658ms total)
T0D8C 000:742 JLINK_ReadReg(R0)  returns 0x00000001 (0000ms, 0658ms total)
T0D8C 000:742 JLINK_WriteReg(R0, 0x00000000)  returns 0x00 (0000ms, 0658ms total)
T0D8C 000:742 JLINK_WriteReg(R1, 0x00001000)  returns 0x00 (0000ms, 0658ms total)
T0D8C 000:742 JLINK_WriteReg(R2, 0x000000FF)  returns 0x00 (0000ms, 0658ms total)
T0D8C 000:742 JLINK_WriteReg(R3, 0x00000000)  returns 0x00 (0000ms, 0658ms total)
T0D8C 000:742 JLINK_WriteReg(R4, 0x00000000)  returns 0x00 (0000ms, 0658ms total)
T0D8C 000:742 JLINK_WriteReg(R5, 0x00000000)  returns 0x00 (0000ms, 0658ms total)
T0D8C 000:742 JLINK_WriteReg(R6, 0x00000000)  returns 0x00 (0000ms, 0658ms total)
T0D8C 000:742 JLINK_WriteReg(R7, 0x00000000)  returns 0x00 (0000ms, 0658ms total)
T0D8C 000:742 JLINK_WriteReg(R8, 0x00000000)  returns 0x00 (0000ms, 0658ms total)
T0D8C 000:742 JLINK_WriteReg(R9, 0x100001D0)  returns 0x00 (0000ms, 0658ms total)
T0D8C 000:742 JLINK_WriteReg(R10, 0x00000000)  returns 0x00 (0000ms, 0658ms total)
T0D8C 000:742 JLINK_WriteReg(R11, 0x00000000)  returns 0x00 (0000ms, 0658ms total)
T0D8C 000:742 JLINK_WriteReg(R12, 0x00000000)  returns 0x00 (0000ms, 0658ms total)
T0D8C 000:742 JLINK_WriteReg(R13 (SP), 0x10000800)  returns 0x00 (0000ms, 0658ms total)
T0D8C 000:742 JLINK_WriteReg(R14, 0x10000001)  returns 0x00 (0001ms, 0659ms total)
T0D8C 000:743 JLINK_WriteReg(R15 (PC), 0x100000E8)  returns 0x00 (0000ms, 0659ms total)
T0D8C 000:743 JLINK_WriteReg(XPSR, 0x01000000)  returns 0x00 (0000ms, 0659ms total)
T0D8C 000:743 JLINK_WriteReg(MSP, 0x10000800)  returns 0x00 (0000ms, 0659ms total)
T0D8C 000:743 JLINK_WriteReg(PSP, 0x10000800)  returns 0x00 (0000ms, 0659ms total)
T0D8C 000:743 JLINK_WriteReg(CFBP, 0x00000000)  returns 0x00 (0000ms, 0659ms total)
T0D8C 000:743 JLINK_SetBPEx(Addr = 0x10000000, Type = 0xFFFFFFF2)  returns 0x00000003 (0000ms, 0659ms total)
T0D8C 000:743 JLINK_Go() (0002ms, 0661ms total)
T0D8C 000:745 JLINK_IsHalted()  returns FALSE (0001ms, 0662ms total)
T0D8C 000:796 JLINK_IsHalted()  returns FALSE (0001ms, 0662ms total)
T0D8C 000:847 JLINK_IsHalted()  returns TRUE (0005ms, 0666ms total)
T0D8C 000:852 JLINK_ReadReg(R15 (PC))  returns 0x10000000 (0000ms, 0661ms total)
T0D8C 000:852 JLINK_ClrBPEx(BPHandle = 0x00000003)  returns 0x00 (0000ms, 0661ms total)
T0D8C 000:852 JLINK_ReadReg(R0)  returns 0x00000000 (0000ms, 0661ms total)
T0D8C 000:853 JLINK_WriteReg(R0, 0x00001000)  returns 0x00 (0000ms, 0661ms total)
T0D8C 000:853 JLINK_WriteReg(R1, 0x00001000)  returns 0x00 (0000ms, 0661ms total)
T0D8C 000:853 JLINK_WriteReg(R2, 0x000000FF)  returns 0x00 (0000ms, 0661ms total)
T0D8C 000:853 JLINK_WriteReg(R3, 0x00000000)  returns 0x00 (0000ms, 0661ms total)
T0D8C 000:853 JLINK_WriteReg(R4, 0x00000000)  returns 0x00 (0000ms, 0661ms total)
T0D8C 000:853 JLINK_WriteReg(R5, 0x00000000)  returns 0x00 (0000ms, 0661ms total)
T0D8C 000:853 JLINK_WriteReg(R6, 0x00000000)  returns 0x00 (0000ms, 0661ms total)
T0D8C 000:853 JLINK_WriteReg(R7, 0x00000000)  returns 0x00 (0000ms, 0661ms total)
T0D8C 000:853 JLINK_WriteReg(R8, 0x00000000)  returns 0x00 (0000ms, 0661ms total)
T0D8C 000:853 JLINK_WriteReg(R9, 0x100001D0)  returns 0x00 (0000ms, 0661ms total)
T0D8C 000:853 JLINK_WriteReg(R10, 0x00000000)  returns 0x00 (0000ms, 0661ms total)
T0D8C 000:853 JLINK_WriteReg(R11, 0x00000000)  returns 0x00 (0000ms, 0661ms total)
T0D8C 000:853 JLINK_WriteReg(R12, 0x00000000)  returns 0x00 (0000ms, 0661ms total)
T0D8C 000:853 JLINK_WriteReg(R13 (SP), 0x10000800)  returns 0x00 (0000ms, 0661ms total)
T0D8C 000:853 JLINK_WriteReg(R14, 0x10000001)  returns 0x00 (0000ms, 0661ms total)
T0D8C 000:853 JLINK_WriteReg(R15 (PC), 0x10000020)  returns 0x00 (0000ms, 0661ms total)
T0D8C 000:853 JLINK_WriteReg(XPSR, 0x01000000)  returns 0x00 (0000ms, 0661ms total)
T0D8C 000:853 JLINK_WriteReg(MSP, 0x10000800)  returns 0x00 (0000ms, 0661ms total)
T0D8C 000:853 JLINK_WriteReg(PSP, 0x10000800)  returns 0x00 (0000ms, 0661ms total)
T0D8C 000:853 JLINK_WriteReg(CFBP, 0x00000000)  returns 0x00 (0000ms, 0661ms total)
T0D8C 000:853 JLINK_SetBPEx(Addr = 0x10000000, Type = 0xFFFFFFF2)  returns 0x00000004 (0000ms, 0661ms total)
T0D8C 000:853 JLINK_Go() (0003ms, 0664ms total)
T0D8C 000:856 JLINK_IsHalted()  returns TRUE (0005ms, 0669ms total)
T0D8C 000:861 JLINK_ReadReg(R15 (PC))  returns 0x10000000 (0000ms, 0664ms total)
T0D8C 000:861 JLINK_ClrBPEx(BPHandle = 0x00000004)  returns 0x00 (0000ms, 0664ms total)
T0D8C 000:861 JLINK_ReadReg(R0)  returns 0x00000001 (0000ms, 0664ms total)
T0D8C 000:861 JLINK_WriteReg(R0, 0x00001000)  returns 0x00 (0000ms, 0664ms total)
T0D8C 000:861 JLINK_WriteReg(R1, 0x00001000)  returns 0x00 (0000ms, 0664ms total)
T0D8C 000:861 JLINK_WriteReg(R2, 0x000000FF)  returns 0x00 (0000ms, 0664ms total)
T0D8C 000:861 JLINK_WriteReg(R3, 0x00000000)  returns 0x00 (0000ms, 0664ms total)
T0D8C 000:861 JLINK_WriteReg(R4, 0x00000000)  returns 0x00 (0000ms, 0664ms total)
T0D8C 000:861 JLINK_WriteReg(R5, 0x00000000)  returns 0x00 (0000ms, 0664ms total)
T0D8C 000:861 JLINK_WriteReg(R6, 0x00000000)  returns 0x00 (0000ms, 0664ms total)
T0D8C 000:861 JLINK_WriteReg(R7, 0x00000000)  returns 0x00 (0000ms, 0664ms total)
T0D8C 000:861 JLINK_WriteReg(R8, 0x00000000)  returns 0x00 (0000ms, 0664ms total)
T0D8C 000:861 JLINK_WriteReg(R9, 0x100001D0)  returns 0x00 (0000ms, 0664ms total)
T0D8C 000:861 JLINK_WriteReg(R10, 0x00000000)  returns 0x00 (0000ms, 0664ms total)
T0D8C 000:861 JLINK_WriteReg(R11, 0x00000000)  returns 0x00 (0000ms, 0664ms total)
T0D8C 000:861 JLINK_WriteReg(R12, 0x00000000)  returns 0x00 (0000ms, 0664ms total)
T0D8C 000:861 JLINK_WriteReg(R13 (SP), 0x10000800)  returns 0x00 (0000ms, 0664ms total)
T0D8C 000:861 JLINK_WriteReg(R14, 0x10000001)  returns 0x00 (0000ms, 0664ms total)
T0D8C 000:861 JLINK_WriteReg(R15 (PC), 0x100000E8)  returns 0x00 (0001ms, 0665ms total)
T0D8C 000:862 JLINK_WriteReg(XPSR, 0x01000000)  returns 0x00 (0000ms, 0665ms total)
T0D8C 000:862 JLINK_WriteReg(MSP, 0x10000800)  returns 0x00 (0000ms, 0665ms total)
T0D8C 000:862 JLINK_WriteReg(PSP, 0x10000800)  returns 0x00 (0000ms, 0665ms total)
T0D8C 000:862 JLINK_WriteReg(CFBP, 0x00000000)  returns 0x00 (0000ms, 0665ms total)
T0D8C 000:862 JLINK_SetBPEx(Addr = 0x10000000, Type = 0xFFFFFFF2)  returns 0x00000005 (0000ms, 0665ms total)
T0D8C 000:862 JLINK_Go() (0002ms, 0667ms total)
T0D8C 000:864 JLINK_IsHalted()  returns FALSE (0001ms, 0668ms total)
T0D8C 000:915 JLINK_IsHalted()  returns FALSE (0001ms, 0668ms total)
T0D8C 000:966 JLINK_IsHalted()  returns TRUE (0005ms, 0672ms total)
T0D8C 000:971 JLINK_ReadReg(R15 (PC))  returns 0x10000000 (0000ms, 0667ms total)
T0D8C 000:971 JLINK_ClrBPEx(BPHandle = 0x00000005)  returns 0x00 (0000ms, 0667ms total)
T0D8C 000:971 JLINK_ReadReg(R0)  returns 0x00000000 (0000ms, 0667ms total)
T0D8C 000:972 JLINK_WriteReg(R0, 0x00002000)  returns 0x00 (0000ms, 0667ms total)
T0D8C 000:972 JLINK_WriteReg(R1, 0x00001000)  returns 0x00 (0000ms, 0667ms total)
T0D8C 000:972 JLINK_WriteReg(R2, 0x000000FF)  returns 0x00 (0000ms, 0667ms total)
T0D8C 000:972 JLINK_WriteReg(R3, 0x00000000)  returns 0x00 (0000ms, 0667ms total)
T0D8C 000:972 JLINK_WriteReg(R4, 0x00000000)  returns 0x00 (0000ms, 0667ms total)
T0D8C 000:972 JLINK_WriteReg(R5, 0x00000000)  returns 0x00 (0000ms, 0667ms total)
T0D8C 000:972 JLINK_WriteReg(R6, 0x00000000)  returns 0x00 (0000ms, 0667ms total)
T0D8C 000:972 JLINK_WriteReg(R7, 0x00000000)  returns 0x00 (0000ms, 0667ms total)
T0D8C 000:972 JLINK_WriteReg(R8, 0x00000000)  returns 0x00 (0000ms, 0667ms total)
T0D8C 000:972 JLINK_WriteReg(R9, 0x100001D0)  returns 0x00 (0000ms, 0667ms total)
T0D8C 000:972 JLINK_WriteReg(R10, 0x00000000)  returns 0x00 (0000ms, 0667ms total)
T0D8C 000:972 JLINK_WriteReg(R11, 0x00000000)  returns 0x00 (0000ms, 0667ms total)
T0D8C 000:972 JLINK_WriteReg(R12, 0x00000000)  returns 0x00 (0000ms, 0667ms total)
T0D8C 000:972 JLINK_WriteReg(R13 (SP), 0x10000800)  returns 0x00 (0000ms, 0667ms total)
T0D8C 000:972 JLINK_WriteReg(R14, 0x10000001)  returns 0x00 (0000ms, 0667ms total)
T0D8C 000:972 JLINK_WriteReg(R15 (PC), 0x10000020)  returns 0x00 (0000ms, 0667ms total)
T0D8C 000:972 JLINK_WriteReg(XPSR, 0x01000000)  returns 0x00 (0000ms, 0667ms total)
T0D8C 000:972 JLINK_WriteReg(MSP, 0x10000800)  returns 0x00 (0000ms, 0667ms total)
T0D8C 000:972 JLINK_WriteReg(PSP, 0x10000800)  returns 0x00 (0000ms, 0667ms total)
T0D8C 000:972 JLINK_WriteReg(CFBP, 0x00000000)  returns 0x00 (0000ms, 0667ms total)
T0D8C 000:972 JLINK_SetBPEx(Addr = 0x10000000, Type = 0xFFFFFFF2)  returns 0x00000006 (0000ms, 0667ms total)
T0D8C 000:972 JLINK_Go() (0020ms, 0687ms total)
T0D8C 000:992 JLINK_IsHalted()  returns TRUE (0018ms, 0705ms total)
T0D8C 001:010 JLINK_ReadReg(R15 (PC))  returns 0x10000000 (0001ms, 0688ms total)
T0D8C 001:011 JLINK_ClrBPEx(BPHandle = 0x00000006)  returns 0x00 (0000ms, 0688ms total)
T0D8C 001:011 JLINK_ReadReg(R0)  returns 0x00000001 (0000ms, 0688ms total)
T0D8C 001:011 JLINK_WriteReg(R0, 0x00002000)  returns 0x00 (0000ms, 0688ms total)
T0D8C 001:011 JLINK_WriteReg(R1, 0x00001000)  returns 0x00 (0000ms, 0688ms total)
T0D8C 001:011 JLINK_WriteReg(R2, 0x000000FF)  returns 0x00 (0000ms, 0688ms total)
T0D8C 001:011 JLINK_WriteReg(R3, 0x00000000)  returns 0x00 (0000ms, 0688ms total)
T0D8C 001:011 JLINK_WriteReg(R4, 0x00000000)  returns 0x00 (0000ms, 0688ms total)
T0D8C 001:011 JLINK_WriteReg(R5, 0x00000000)  returns 0x00 (0000ms, 0688ms total)
T0D8C 001:011 JLINK_WriteReg(R6, 0x00000000)  returns 0x00 (0000ms, 0688ms total)
T0D8C 001:011 JLINK_WriteReg(R7, 0x00000000)  returns 0x00 (0000ms, 0688ms total)
T0D8C 001:011 JLINK_WriteReg(R8, 0x00000000)  returns 0x00 (0000ms, 0688ms total)
T0D8C 001:011 JLINK_WriteReg(R9, 0x100001D0)  returns 0x00 (0000ms, 0688ms total)
T0D8C 001:011 JLINK_WriteReg(R10, 0x00000000)  returns 0x00 (0000ms, 0688ms total)
T0D8C 001:011 JLINK_WriteReg(R11, 0x00000000)  returns 0x00 (0000ms, 0688ms total)
T0D8C 001:011 JLINK_WriteReg(R12, 0x00000000)  returns 0x00 (0000ms, 0688ms total)
T0D8C 001:011 JLINK_WriteReg(R13 (SP), 0x10000800)  returns 0x00 (0000ms, 0688ms total)
T0D8C 001:011 JLINK_WriteReg(R14, 0x10000001)  returns 0x00 (0000ms, 0688ms total)
T0D8C 001:011 JLINK_WriteReg(R15 (PC), 0x100000E8)  returns 0x00 (0000ms, 0688ms total)
T0D8C 001:011 JLINK_WriteReg(XPSR, 0x01000000)  returns 0x00 (0000ms, 0688ms total)
T0D8C 001:011 JLINK_WriteReg(MSP, 0x10000800)  returns 0x00 (0000ms, 0688ms total)
T0D8C 001:011 JLINK_WriteReg(PSP, 0x10000800)  returns 0x00 (0000ms, 0688ms total)
T0D8C 001:011 JLINK_WriteReg(CFBP, 0x00000000)  returns 0x00 (0000ms, 0688ms total)
T0D8C 001:011 JLINK_SetBPEx(Addr = 0x10000000, Type = 0xFFFFFFF2)  returns 0x00000007 (0000ms, 0688ms total)
T0D8C 001:011 JLINK_Go() (0003ms, 0691ms total)
T0D8C 001:014 JLINK_IsHalted()  returns FALSE (0001ms, 0692ms total)
T0D8C 001:065 JLINK_IsHalted()  returns FALSE (0001ms, 0692ms total)
T0D8C 001:116 JLINK_IsHalted()  returns TRUE (0005ms, 0696ms total)
T0D8C 001:121 JLINK_ReadReg(R15 (PC))  returns 0x10000000 (0000ms, 0691ms total)
T0D8C 001:121 JLINK_ClrBPEx(BPHandle = 0x00000007)  returns 0x00 (0000ms, 0691ms total)
T0D8C 001:121 JLINK_ReadReg(R0)  returns 0x00000000 (0000ms, 0691ms total)
T0D8C 001:122 JLINK_WriteReg(R0, 0x00003000)  returns 0x00 (0000ms, 0691ms total)
T0D8C 001:122 JLINK_WriteReg(R1, 0x00001000)  returns 0x00 (0000ms, 0691ms total)
T0D8C 001:122 JLINK_WriteReg(R2, 0x000000FF)  returns 0x00 (0000ms, 0691ms total)
T0D8C 001:122 JLINK_WriteReg(R3, 0x00000000)  returns 0x00 (0000ms, 0691ms total)
T0D8C 001:122 JLINK_WriteReg(R4, 0x00000000)  returns 0x00 (0000ms, 0691ms total)
T0D8C 001:122 JLINK_WriteReg(R5, 0x00000000)  returns 0x00 (0000ms, 0691ms total)
T0D8C 001:122 JLINK_WriteReg(R6, 0x00000000)  returns 0x00 (0000ms, 0691ms total)
T0D8C 001:122 JLINK_WriteReg(R7, 0x00000000)  returns 0x00 (0000ms, 0691ms total)
T0D8C 001:122 JLINK_WriteReg(R8, 0x00000000)  returns 0x00 (0000ms, 0691ms total)
T0D8C 001:122 JLINK_WriteReg(R9, 0x100001D0)  returns 0x00 (0000ms, 0691ms total)
T0D8C 001:122 JLINK_WriteReg(R10, 0x00000000)  returns 0x00 (0000ms, 0691ms total)
T0D8C 001:122 JLINK_WriteReg(R11, 0x00000000)  returns 0x00 (0000ms, 0691ms total)
T0D8C 001:122 JLINK_WriteReg(R12, 0x00000000)  returns 0x00 (0000ms, 0691ms total)
T0D8C 001:123 JLINK_WriteReg(R13 (SP), 0x10000800)  returns 0x00 (0000ms, 0692ms total)
T0D8C 001:123 JLINK_WriteReg(R14, 0x10000001)  returns 0x00 (0000ms, 0692ms total)
T0D8C 001:123 JLINK_WriteReg(R15 (PC), 0x10000020)  returns 0x00 (0000ms, 0692ms total)
T0D8C 001:123 JLINK_WriteReg(XPSR, 0x01000000)  returns 0x00 (0000ms, 0692ms total)
T0D8C 001:123 JLINK_WriteReg(MSP, 0x10000800)  returns 0x00 (0000ms, 0692ms total)
T0D8C 001:123 JLINK_WriteReg(PSP, 0x10000800)  returns 0x00 (0000ms, 0692ms total)
T0D8C 001:123 JLINK_WriteReg(CFBP, 0x00000000)  returns 0x00 (0000ms, 0692ms total)
T0D8C 001:123 JLINK_SetBPEx(Addr = 0x10000000, Type = 0xFFFFFFF2)  returns 0x00000008 (0000ms, 0692ms total)
T0D8C 001:123 JLINK_Go() (0002ms, 0694ms total)
T0D8C 001:125 JLINK_IsHalted()  returns TRUE (0005ms, 0699ms total)
T0D8C 001:130 JLINK_ReadReg(R15 (PC))  returns 0x10000000 (0000ms, 0694ms total)
T0D8C 001:131 JLINK_ClrBPEx(BPHandle = 0x00000008)  returns 0x00 (0000ms, 0695ms total)
T0D8C 001:131 JLINK_ReadReg(R0)  returns 0x00000001 (0000ms, 0695ms total)
T0D8C 001:131 JLINK_WriteReg(R0, 0x00003000)  returns 0x00 (0000ms, 0695ms total)
T0D8C 001:131 JLINK_WriteReg(R1, 0x00001000)  returns 0x00 (0000ms, 0695ms total)
T0D8C 001:131 JLINK_WriteReg(R2, 0x000000FF)  returns 0x00 (0000ms, 0695ms total)
T0D8C 001:131 JLINK_WriteReg(R3, 0x00000000)  returns 0x00 (0000ms, 0695ms total)
T0D8C 001:131 JLINK_WriteReg(R4, 0x00000000)  returns 0x00 (0000ms, 0695ms total)
T0D8C 001:131 JLINK_WriteReg(R5, 0x00000000)  returns 0x00 (0000ms, 0695ms total)
T0D8C 001:131 JLINK_WriteReg(R6, 0x00000000)  returns 0x00 (0000ms, 0695ms total)
T0D8C 001:131 JLINK_WriteReg(R7, 0x00000000)  returns 0x00 (0000ms, 0695ms total)
T0D8C 001:131 JLINK_WriteReg(R8, 0x00000000)  returns 0x00 (0000ms, 0695ms total)
T0D8C 001:131 JLINK_WriteReg(R9, 0x100001D0)  returns 0x00 (0000ms, 0695ms total)
T0D8C 001:131 JLINK_WriteReg(R10, 0x00000000)  returns 0x00 (0000ms, 0695ms total)
T0D8C 001:131 JLINK_WriteReg(R11, 0x00000000)  returns 0x00 (0000ms, 0695ms total)
T0D8C 001:131 JLINK_WriteReg(R12, 0x00000000)  returns 0x00 (0000ms, 0695ms total)
T0D8C 001:131 JLINK_WriteReg(R13 (SP), 0x10000800)  returns 0x00 (0000ms, 0695ms total)
T0D8C 001:131 JLINK_WriteReg(R14, 0x10000001)  returns 0x00 (0000ms, 0695ms total)
T0D8C 001:131 JLINK_WriteReg(R15 (PC), 0x100000E8)  returns 0x00 (0000ms, 0695ms total)
T0D8C 001:131 JLINK_WriteReg(XPSR, 0x01000000)  returns 0x00 (0000ms, 0695ms total)
T0D8C 001:131 JLINK_WriteReg(MSP, 0x10000800)  returns 0x00 (0000ms, 0695ms total)
T0D8C 001:131 JLINK_WriteReg(PSP, 0x10000800)  returns 0x00 (0000ms, 0695ms total)
T0D8C 001:131 JLINK_WriteReg(CFBP, 0x00000000)  returns 0x00 (0000ms, 0695ms total)
T0D8C 001:131 JLINK_SetBPEx(Addr = 0x10000000, Type = 0xFFFFFFF2)  returns 0x00000009 (0000ms, 0695ms total)
T0D8C 001:131 JLINK_Go() (0002ms, 0697ms total)
T0D8C 001:133 JLINK_IsHalted()  returns FALSE (0001ms, 0698ms total)
T0D8C 001:184 JLINK_IsHalted()  returns FALSE (0001ms, 0698ms total)
T0D8C 001:235 JLINK_IsHalted()  returns TRUE (0005ms, 0702ms total)
T0D8C 001:240 JLINK_ReadReg(R15 (PC))  returns 0x10000000 (0000ms, 0697ms total)
T0D8C 001:240 JLINK_ClrBPEx(BPHandle = 0x00000009)  returns 0x00 (0000ms, 0697ms total)
T0D8C 001:240 JLINK_ReadReg(R0)  returns 0x00000000 (0000ms, 0697ms total)
T0D8C 001:241 JLINK_WriteReg(R0, 0x00004000)  returns 0x00 (0000ms, 0697ms total)
T0D8C 001:241 JLINK_WriteReg(R1, 0x00001000)  returns 0x00 (0000ms, 0697ms total)
T0D8C 001:241 JLINK_WriteReg(R2, 0x000000FF)  returns 0x00 (0000ms, 0697ms total)
T0D8C 001:241 JLINK_WriteReg(R3, 0x00000000)  returns 0x00 (0000ms, 0697ms total)
T0D8C 001:241 JLINK_WriteReg(R4, 0x00000000)  returns 0x00 (0000ms, 0697ms total)
T0D8C 001:241 JLINK_WriteReg(R5, 0x00000000)  returns 0x00 (0000ms, 0697ms total)
T0D8C 001:241 JLINK_WriteReg(R6, 0x00000000)  returns 0x00 (0000ms, 0697ms total)
T0D8C 001:241 JLINK_WriteReg(R7, 0x00000000)  returns 0x00 (0000ms, 0697ms total)
T0D8C 001:241 JLINK_WriteReg(R8, 0x00000000)  returns 0x00 (0000ms, 0697ms total)
T0D8C 001:241 JLINK_WriteReg(R9, 0x100001D0)  returns 0x00 (0000ms, 0697ms total)
T0D8C 001:241 JLINK_WriteReg(R10, 0x00000000)  returns 0x00 (0000ms, 0697ms total)
T0D8C 001:241 JLINK_WriteReg(R11, 0x00000000)  returns 0x00 (0000ms, 0697ms total)
T0D8C 001:241 JLINK_WriteReg(R12, 0x00000000)  returns 0x00 (0000ms, 0697ms total)
T0D8C 001:241 JLINK_WriteReg(R13 (SP), 0x10000800)  returns 0x00 (0000ms, 0697ms total)
T0D8C 001:241 JLINK_WriteReg(R14, 0x10000001)  returns 0x00 (0000ms, 0697ms total)
T0D8C 001:241 JLINK_WriteReg(R15 (PC), 0x10000020)  returns 0x00 (0000ms, 0697ms total)
T0D8C 001:241 JLINK_WriteReg(XPSR, 0x01000000)  returns 0x00 (0000ms, 0697ms total)
T0D8C 001:241 JLINK_WriteReg(MSP, 0x10000800)  returns 0x00 (0000ms, 0697ms total)
T0D8C 001:241 JLINK_WriteReg(PSP, 0x10000800)  returns 0x00 (0000ms, 0697ms total)
T0D8C 001:241 JLINK_WriteReg(CFBP, 0x00000000)  returns 0x00 (0001ms, 0698ms total)
T0D8C 001:242 JLINK_SetBPEx(Addr = 0x10000000, Type = 0xFFFFFFF2)  returns 0x0000000A (0000ms, 0698ms total)
T0D8C 001:242 JLINK_Go() (0002ms, 0700ms total)
T0D8C 001:244 JLINK_IsHalted()  returns TRUE (0005ms, 0705ms total)
T0D8C 001:249 JLINK_ReadReg(R15 (PC))  returns 0x10000000 (0000ms, 0700ms total)
T0D8C 001:249 JLINK_ClrBPEx(BPHandle = 0x0000000A)  returns 0x00 (0000ms, 0700ms total)
T0D8C 001:249 JLINK_ReadReg(R0)  returns 0x00000001 (0000ms, 0700ms total)
T0D8C 001:249 JLINK_WriteReg(R0, 0x00004000)  returns 0x00 (0000ms, 0700ms total)
T0D8C 001:249 JLINK_WriteReg(R1, 0x00001000)  returns 0x00 (0000ms, 0700ms total)
T0D8C 001:249 JLINK_WriteReg(R2, 0x000000FF)  returns 0x00 (0000ms, 0700ms total)
T0D8C 001:249 JLINK_WriteReg(R3, 0x00000000)  returns 0x00 (0000ms, 0700ms total)
T0D8C 001:249 JLINK_WriteReg(R4, 0x00000000)  returns 0x00 (0001ms, 0701ms total)
T0D8C 001:250 JLINK_WriteReg(R5, 0x00000000)  returns 0x00 (0000ms, 0701ms total)
T0D8C 001:250 JLINK_WriteReg(R6, 0x00000000)  returns 0x00 (0000ms, 0701ms total)
T0D8C 001:250 JLINK_WriteReg(R7, 0x00000000)  returns 0x00 (0000ms, 0701ms total)
T0D8C 001:250 JLINK_WriteReg(R8, 0x00000000)  returns 0x00 (0000ms, 0701ms total)
T0D8C 001:250 JLINK_WriteReg(R9, 0x100001D0)  returns 0x00 (0000ms, 0701ms total)
T0D8C 001:250 JLINK_WriteReg(R10, 0x00000000)  returns 0x00 (0000ms, 0701ms total)
T0D8C 001:250 JLINK_WriteReg(R11, 0x00000000)  returns 0x00 (0000ms, 0701ms total)
T0D8C 001:250 JLINK_WriteReg(R12, 0x00000000)  returns 0x00 (0000ms, 0701ms total)
T0D8C 001:250 JLINK_WriteReg(R13 (SP), 0x10000800)  returns 0x00 (0000ms, 0701ms total)
T0D8C 001:250 JLINK_WriteReg(R14, 0x10000001)  returns 0x00 (0000ms, 0701ms total)
T0D8C 001:250 JLINK_WriteReg(R15 (PC), 0x100000E8)  returns 0x00 (0000ms, 0701ms total)
T0D8C 001:250 JLINK_WriteReg(XPSR, 0x01000000)  returns 0x00 (0000ms, 0701ms total)
T0D8C 001:250 JLINK_WriteReg(MSP, 0x10000800)  returns 0x00 (0000ms, 0701ms total)
T0D8C 001:250 JLINK_WriteReg(PSP, 0x10000800)  returns 0x00 (0000ms, 0701ms total)
T0D8C 001:250 JLINK_WriteReg(CFBP, 0x00000000)  returns 0x00 (0000ms, 0701ms total)
T0D8C 001:250 JLINK_SetBPEx(Addr = 0x10000000, Type = 0xFFFFFFF2)  returns 0x0000000B (0000ms, 0701ms total)
T0D8C 001:250 JLINK_Go() (0002ms, 0703ms total)
T0D8C 001:252 JLINK_IsHalted()  returns FALSE (0001ms, 0704ms total)
T0D8C 001:303 JLINK_IsHalted()  returns FALSE (0001ms, 0704ms total)
T0D8C 001:354 JLINK_IsHalted()  returns TRUE (0005ms, 0708ms total)
T0D8C 001:359 JLINK_ReadReg(R15 (PC))  returns 0x10000000 (0000ms, 0703ms total)
T0D8C 001:359 JLINK_ClrBPEx(BPHandle = 0x0000000B)  returns 0x00 (0000ms, 0703ms total)
T0D8C 001:359 JLINK_ReadReg(R0)  returns 0x00000000 (0000ms, 0703ms total)
T0D8C 001:360 JLINK_WriteReg(R0, 0x00005000)  returns 0x00 (0000ms, 0703ms total)
T0D8C 001:360 JLINK_WriteReg(R1, 0x00001000)  returns 0x00 (0000ms, 0703ms total)
T0D8C 001:360 JLINK_WriteReg(R2, 0x000000FF)  returns 0x00 (0000ms, 0703ms total)
T0D8C 001:360 JLINK_WriteReg(R3, 0x00000000)  returns 0x00 (0000ms, 0703ms total)
T0D8C 001:360 JLINK_WriteReg(R4, 0x00000000)  returns 0x00 (0000ms, 0703ms total)
T0D8C 001:360 JLINK_WriteReg(R5, 0x00000000)  returns 0x00 (0000ms, 0703ms total)
T0D8C 001:360 JLINK_WriteReg(R6, 0x00000000)  returns 0x00 (0000ms, 0703ms total)
T0D8C 001:360 JLINK_WriteReg(R7, 0x00000000)  returns 0x00 (0000ms, 0703ms total)
T0D8C 001:360 JLINK_WriteReg(R8, 0x00000000)  returns 0x00 (0000ms, 0703ms total)
T0D8C 001:360 JLINK_WriteReg(R9, 0x100001D0)  returns 0x00 (0000ms, 0703ms total)
T0D8C 001:360 JLINK_WriteReg(R10, 0x00000000)  returns 0x00 (0000ms, 0703ms total)
T0D8C 001:360 JLINK_WriteReg(R11, 0x00000000)  returns 0x00 (0000ms, 0703ms total)
T0D8C 001:360 JLINK_WriteReg(R12, 0x00000000)  returns 0x00 (0000ms, 0703ms total)
T0D8C 001:360 JLINK_WriteReg(R13 (SP), 0x10000800)  returns 0x00 (0000ms, 0703ms total)
T0D8C 001:360 JLINK_WriteReg(R14, 0x10000001)  returns 0x00 (0000ms, 0703ms total)
T0D8C 001:360 JLINK_WriteReg(R15 (PC), 0x10000020)  returns 0x00 (0000ms, 0703ms total)
T0D8C 001:360 JLINK_WriteReg(XPSR, 0x01000000)  returns 0x00 (0000ms, 0703ms total)
T0D8C 001:360 JLINK_WriteReg(MSP, 0x10000800)  returns 0x00 (0000ms, 0703ms total)
T0D8C 001:360 JLINK_WriteReg(PSP, 0x10000800)  returns 0x00 (0000ms, 0703ms total)
T0D8C 001:360 JLINK_WriteReg(CFBP, 0x00000000)  returns 0x00 (0000ms, 0703ms total)
T0D8C 001:360 JLINK_SetBPEx(Addr = 0x10000000, Type = 0xFFFFFFF2)  returns 0x0000000C (0000ms, 0703ms total)
T0D8C 001:360 JLINK_Go() (0003ms, 0706ms total)
T0D8C 001:363 JLINK_IsHalted()  returns TRUE (0005ms, 0711ms total)
T0D8C 001:368 JLINK_ReadReg(R15 (PC))  returns 0x10000000 (0000ms, 0706ms total)
T0D8C 001:368 JLINK_ClrBPEx(BPHandle = 0x0000000C)  returns 0x00 (0000ms, 0706ms total)
T0D8C 001:368 JLINK_ReadReg(R0)  returns 0x00000001 (0000ms, 0706ms total)
T0D8C 001:368 JLINK_WriteReg(R0, 0x00005000)  returns 0x00 (0000ms, 0706ms total)
T0D8C 001:368 JLINK_WriteReg(R1, 0x00001000)  returns 0x00 (0000ms, 0706ms total)
T0D8C 001:368 JLINK_WriteReg(R2, 0x000000FF)  returns 0x00 (0000ms, 0706ms total)
T0D8C 001:368 JLINK_WriteReg(R3, 0x00000000)  returns 0x00 (0000ms, 0706ms total)
T0D8C 001:368 JLINK_WriteReg(R4, 0x00000000)  returns 0x00 (0000ms, 0706ms total)
T0D8C 001:368 JLINK_WriteReg(R5, 0x00000000)  returns 0x00 (0000ms, 0706ms total)
T0D8C 001:368 JLINK_WriteReg(R6, 0x00000000)  returns 0x00 (0000ms, 0706ms total)
T0D8C 001:368 JLINK_WriteReg(R7, 0x00000000)  returns 0x00 (0000ms, 0706ms total)
T0D8C 001:368 JLINK_WriteReg(R8, 0x00000000)  returns 0x00 (0000ms, 0706ms total)
T0D8C 001:368 JLINK_WriteReg(R9, 0x100001D0)  returns 0x00 (0000ms, 0706ms total)
T0D8C 001:368 JLINK_WriteReg(R10, 0x00000000)  returns 0x00 (0000ms, 0706ms total)
T0D8C 001:368 JLINK_WriteReg(R11, 0x00000000)  returns 0x00 (0000ms, 0706ms total)
T0D8C 001:368 JLINK_WriteReg(R12, 0x00000000)  returns 0x00 (0000ms, 0706ms total)
T0D8C 001:368 JLINK_WriteReg(R13 (SP), 0x10000800)  returns 0x00 (0000ms, 0706ms total)
T0D8C 001:368 JLINK_WriteReg(R14, 0x10000001)  returns 0x00 (0000ms, 0706ms total)
T0D8C 001:368 JLINK_WriteReg(R15 (PC), 0x100000E8)  returns 0x00 (0000ms, 0706ms total)
T0D8C 001:368 JLINK_WriteReg(XPSR, 0x01000000)  returns 0x00 (0000ms, 0706ms total)
T0D8C 001:368 JLINK_WriteReg(MSP, 0x10000800)  returns 0x00 (0000ms, 0706ms total)
T0D8C 001:368 JLINK_WriteReg(PSP, 0x10000800)  returns 0x00 (0000ms, 0706ms total)
T0D8C 001:368 JLINK_WriteReg(CFBP, 0x00000000)  returns 0x00 (0000ms, 0706ms total)
T0D8C 001:368 JLINK_SetBPEx(Addr = 0x10000000, Type = 0xFFFFFFF2)  returns 0x0000000D (0001ms, 0707ms total)
T0D8C 001:369 JLINK_Go() (0002ms, 0709ms total)
T0D8C 001:371 JLINK_IsHalted()  returns FALSE (0001ms, 0710ms total)
T0D8C 001:422 JLINK_IsHalted()  returns FALSE (0001ms, 0710ms total)
T0D8C 001:473 JLINK_IsHalted()  returns TRUE (0005ms, 0714ms total)
T0D8C 001:478 JLINK_ReadReg(R15 (PC))  returns 0x10000000 (0000ms, 0709ms total)
T0D8C 001:478 JLINK_ClrBPEx(BPHandle = 0x0000000D)  returns 0x00 (0000ms, 0709ms total)
T0D8C 001:478 JLINK_ReadReg(R0)  returns 0x00000000 (0000ms, 0709ms total)
T0D8C 001:479 JLINK_WriteReg(R0, 0x00006000)  returns 0x00 (0000ms, 0709ms total)
T0D8C 001:479 JLINK_WriteReg(R1, 0x00001000)  returns 0x00 (0000ms, 0709ms total)
T0D8C 001:479 JLINK_WriteReg(R2, 0x000000FF)  returns 0x00 (0000ms, 0709ms total)
T0D8C 001:479 JLINK_WriteReg(R3, 0x00000000)  returns 0x00 (0000ms, 0709ms total)
T0D8C 001:479 JLINK_WriteReg(R4, 0x00000000)  returns 0x00 (0000ms, 0709ms total)
T0D8C 001:479 JLINK_WriteReg(R5, 0x00000000)  returns 0x00 (0000ms, 0709ms total)
T0D8C 001:479 JLINK_WriteReg(R6, 0x00000000)  returns 0x00 (0000ms, 0709ms total)
T0D8C 001:479 JLINK_WriteReg(R7, 0x00000000)  returns 0x00 (0000ms, 0709ms total)
T0D8C 001:479 JLINK_WriteReg(R8, 0x00000000)  returns 0x00 (0000ms, 0709ms total)
T0D8C 001:479 JLINK_WriteReg(R9, 0x100001D0)  returns 0x00 (0000ms, 0709ms total)
T0D8C 001:479 JLINK_WriteReg(R10, 0x00000000)  returns 0x00 (0000ms, 0709ms total)
T0D8C 001:479 JLINK_WriteReg(R11, 0x00000000)  returns 0x00 (0000ms, 0709ms total)
T0D8C 001:479 JLINK_WriteReg(R12, 0x00000000)  returns 0x00 (0000ms, 0709ms total)
T0D8C 001:479 JLINK_WriteReg(R13 (SP), 0x10000800)  returns 0x00 (0000ms, 0709ms total)
T0D8C 001:479 JLINK_WriteReg(R14, 0x10000001)  returns 0x00 (0000ms, 0709ms total)
T0D8C 001:479 JLINK_WriteReg(R15 (PC), 0x10000020)  returns 0x00 (0000ms, 0709ms total)
T0D8C 001:479 JLINK_WriteReg(XPSR, 0x01000000)  returns 0x00 (0000ms, 0709ms total)
T0D8C 001:479 JLINK_WriteReg(MSP, 0x10000800)  returns 0x00 (0000ms, 0709ms total)
T0D8C 001:479 JLINK_WriteReg(PSP, 0x10000800)  returns 0x00 (0001ms, 0710ms total)
T0D8C 001:480 JLINK_WriteReg(CFBP, 0x00000000)  returns 0x00 (0000ms, 0710ms total)
T0D8C 001:480 JLINK_SetBPEx(Addr = 0x10000000, Type = 0xFFFFFFF2)  returns 0x0000000E (0000ms, 0710ms total)
T0D8C 001:480 JLINK_Go() (0002ms, 0712ms total)
T0D8C 001:482 JLINK_IsHalted()  returns TRUE (0005ms, 0717ms total)
T0D8C 001:487 JLINK_ReadReg(R15 (PC))  returns 0x10000000 (0000ms, 0712ms total)
T0D8C 001:487 JLINK_ClrBPEx(BPHandle = 0x0000000E)  returns 0x00 (0000ms, 0712ms total)
T0D8C 001:487 JLINK_ReadReg(R0)  returns 0x00000001 (0000ms, 0712ms total)
T0D8C 001:487 JLINK_WriteReg(R0, 0x00006000)  returns 0x00 (0000ms, 0712ms total)
T0D8C 001:487 JLINK_WriteReg(R1, 0x00001000)  returns 0x00 (0000ms, 0712ms total)
T0D8C 001:487 JLINK_WriteReg(R2, 0x000000FF)  returns 0x00 (0000ms, 0712ms total)
T0D8C 001:487 JLINK_WriteReg(R3, 0x00000000)  returns 0x00 (0000ms, 0712ms total)
T0D8C 001:487 JLINK_WriteReg(R4, 0x00000000)  returns 0x00 (0000ms, 0712ms total)
T0D8C 001:487 JLINK_WriteReg(R5, 0x00000000)  returns 0x00 (0000ms, 0712ms total)
T0D8C 001:487 JLINK_WriteReg(R6, 0x00000000)  returns 0x00 (0000ms, 0712ms total)
T0D8C 001:487 JLINK_WriteReg(R7, 0x00000000)  returns 0x00 (0000ms, 0712ms total)
T0D8C 001:487 JLINK_WriteReg(R8, 0x00000000)  returns 0x00 (0000ms, 0712ms total)
T0D8C 001:487 JLINK_WriteReg(R9, 0x100001D0)  returns 0x00 (0001ms, 0713ms total)
T0D8C 001:488 JLINK_WriteReg(R10, 0x00000000)  returns 0x00 (0000ms, 0713ms total)
T0D8C 001:488 JLINK_WriteReg(R11, 0x00000000)  returns 0x00 (0000ms, 0713ms total)
T0D8C 001:488 JLINK_WriteReg(R12, 0x00000000)  returns 0x00 (0000ms, 0713ms total)
T0D8C 001:488 JLINK_WriteReg(R13 (SP), 0x10000800)  returns 0x00 (0000ms, 0713ms total)
T0D8C 001:488 JLINK_WriteReg(R14, 0x10000001)  returns 0x00 (0000ms, 0713ms total)
T0D8C 001:488 JLINK_WriteReg(R15 (PC), 0x100000E8)  returns 0x00 (0000ms, 0713ms total)
T0D8C 001:488 JLINK_WriteReg(XPSR, 0x01000000)  returns 0x00 (0000ms, 0713ms total)
T0D8C 001:488 JLINK_WriteReg(MSP, 0x10000800)  returns 0x00 (0000ms, 0713ms total)
T0D8C 001:488 JLINK_WriteReg(PSP, 0x10000800)  returns 0x00 (0000ms, 0713ms total)
T0D8C 001:488 JLINK_WriteReg(CFBP, 0x00000000)  returns 0x00 (0000ms, 0713ms total)
T0D8C 001:488 JLINK_SetBPEx(Addr = 0x10000000, Type = 0xFFFFFFF2)  returns 0x0000000F (0000ms, 0713ms total)
T0D8C 001:488 JLINK_Go() (0002ms, 0715ms total)
T0D8C 001:490 JLINK_IsHalted()  returns FALSE (0001ms, 0716ms total)
T0D8C 001:541 JLINK_IsHalted()  returns FALSE (0001ms, 0716ms total)
T0D8C 001:592 JLINK_IsHalted()  returns TRUE (0005ms, 0720ms total)
T0D8C 001:597 JLINK_ReadReg(R15 (PC))  returns 0x10000000 (0000ms, 0715ms total)
T0D8C 001:597 JLINK_ClrBPEx(BPHandle = 0x0000000F)  returns 0x00 (0000ms, 0715ms total)
T0D8C 001:597 JLINK_ReadReg(R0)  returns 0x00000000 (0000ms, 0715ms total)
T0D8C 001:598 JLINK_WriteReg(R0, 0x00007000)  returns 0x00 (0000ms, 0715ms total)
T0D8C 001:598 JLINK_WriteReg(R1, 0x00001000)  returns 0x00 (0000ms, 0715ms total)
T0D8C 001:598 JLINK_WriteReg(R2, 0x000000FF)  returns 0x00 (0000ms, 0715ms total)
T0D8C 001:598 JLINK_WriteReg(R3, 0x00000000)  returns 0x00 (0000ms, 0715ms total)
T0D8C 001:598 JLINK_WriteReg(R4, 0x00000000)  returns 0x00 (0000ms, 0715ms total)
T0D8C 001:598 JLINK_WriteReg(R5, 0x00000000)  returns 0x00 (0000ms, 0715ms total)
T0D8C 001:598 JLINK_WriteReg(R6, 0x00000000)  returns 0x00 (0000ms, 0715ms total)
T0D8C 001:598 JLINK_WriteReg(R7, 0x00000000)  returns 0x00 (0000ms, 0715ms total)
T0D8C 001:598 JLINK_WriteReg(R8, 0x00000000)  returns 0x00 (0000ms, 0715ms total)
T0D8C 001:598 JLINK_WriteReg(R9, 0x100001D0)  returns 0x00 (0001ms, 0716ms total)
T0D8C 001:599 JLINK_WriteReg(R10, 0x00000000)  returns 0x00 (0000ms, 0716ms total)
T0D8C 001:599 JLINK_WriteReg(R11, 0x00000000)  returns 0x00 (0000ms, 0716ms total)
T0D8C 001:599 JLINK_WriteReg(R12, 0x00000000)  returns 0x00 (0000ms, 0716ms total)
T0D8C 001:599 JLINK_WriteReg(R13 (SP), 0x10000800)  returns 0x00 (0000ms, 0716ms total)
T0D8C 001:599 JLINK_WriteReg(R14, 0x10000001)  returns 0x00 (0000ms, 0716ms total)
T0D8C 001:599 JLINK_WriteReg(R15 (PC), 0x10000020)  returns 0x00 (0000ms, 0716ms total)
T0D8C 001:599 JLINK_WriteReg(XPSR, 0x01000000)  returns 0x00 (0000ms, 0716ms total)
T0D8C 001:599 JLINK_WriteReg(MSP, 0x10000800)  returns 0x00 (0000ms, 0716ms total)
T0D8C 001:599 JLINK_WriteReg(PSP, 0x10000800)  returns 0x00 (0000ms, 0716ms total)
T0D8C 001:599 JLINK_WriteReg(CFBP, 0x00000000)  returns 0x00 (0000ms, 0716ms total)
T0D8C 001:599 JLINK_SetBPEx(Addr = 0x10000000, Type = 0xFFFFFFF2)  returns 0x00000010 (0000ms, 0716ms total)
T0D8C 001:599 JLINK_Go() (0002ms, 0718ms total)
T0D8C 001:601 JLINK_IsHalted()  returns TRUE (0005ms, 0723ms total)
T0D8C 001:606 JLINK_ReadReg(R15 (PC))  returns 0x10000000 (0000ms, 0718ms total)
T0D8C 001:606 JLINK_ClrBPEx(BPHandle = 0x00000010)  returns 0x00 (0001ms, 0719ms total)
T0D8C 001:607 JLINK_ReadReg(R0)  returns 0x00000001 (0000ms, 0719ms total)
T0D8C 001:607 JLINK_WriteReg(R0, 0x00007000)  returns 0x00 (0000ms, 0719ms total)
T0D8C 001:607 JLINK_WriteReg(R1, 0x00001000)  returns 0x00 (0000ms, 0719ms total)
T0D8C 001:607 JLINK_WriteReg(R2, 0x000000FF)  returns 0x00 (0000ms, 0719ms total)
T0D8C 001:607 JLINK_WriteReg(R3, 0x00000000)  returns 0x00 (0000ms, 0719ms total)
T0D8C 001:607 JLINK_WriteReg(R4, 0x00000000)  returns 0x00 (0000ms, 0719ms total)
T0D8C 001:607 JLINK_WriteReg(R5, 0x00000000)  returns 0x00 (0000ms, 0719ms total)
T0D8C 001:607 JLINK_WriteReg(R6, 0x00000000)  returns 0x00 (0000ms, 0719ms total)
T0D8C 001:607 JLINK_WriteReg(R7, 0x00000000)  returns 0x00 (0000ms, 0719ms total)
T0D8C 001:607 JLINK_WriteReg(R8, 0x00000000)  returns 0x00 (0000ms, 0719ms total)
T0D8C 001:607 JLINK_WriteReg(R9, 0x100001D0)  returns 0x00 (0000ms, 0719ms total)
T0D8C 001:607 JLINK_WriteReg(R10, 0x00000000)  returns 0x00 (0000ms, 0719ms total)
T0D8C 001:607 JLINK_WriteReg(R11, 0x00000000)  returns 0x00 (0000ms, 0719ms total)
T0D8C 001:607 JLINK_WriteReg(R12, 0x00000000)  returns 0x00 (0000ms, 0719ms total)
T0D8C 001:607 JLINK_WriteReg(R13 (SP), 0x10000800)  returns 0x00 (0000ms, 0719ms total)
T0D8C 001:607 JLINK_WriteReg(R14, 0x10000001)  returns 0x00 (0000ms, 0719ms total)
T0D8C 001:607 JLINK_WriteReg(R15 (PC), 0x100000E8)  returns 0x00 (0000ms, 0719ms total)
T0D8C 001:607 JLINK_WriteReg(XPSR, 0x01000000)  returns 0x00 (0000ms, 0719ms total)
T0D8C 001:607 JLINK_WriteReg(MSP, 0x10000800)  returns 0x00 (0000ms, 0719ms total)
T0D8C 001:607 JLINK_WriteReg(PSP, 0x10000800)  returns 0x00 (0000ms, 0719ms total)
T0D8C 001:607 JLINK_WriteReg(CFBP, 0x00000000)  returns 0x00 (0000ms, 0719ms total)
T0D8C 001:607 JLINK_SetBPEx(Addr = 0x10000000, Type = 0xFFFFFFF2)  returns 0x00000011 (0000ms, 0719ms total)
T0D8C 001:607 JLINK_Go() (0002ms, 0721ms total)
T0D8C 001:609 JLINK_IsHalted()  returns FALSE (0001ms, 0722ms total)
T0D8C 001:660 JLINK_IsHalted()  returns FALSE (0001ms, 0722ms total)
T0D8C 001:711 JLINK_IsHalted()  returns TRUE (0005ms, 0726ms total)
T0D8C 001:716 JLINK_ReadReg(R15 (PC))  returns 0x10000000 (0000ms, 0721ms total)
T0D8C 001:716 JLINK_ClrBPEx(BPHandle = 0x00000011)  returns 0x00 (0000ms, 0721ms total)
T0D8C 001:716 JLINK_ReadReg(R0)  returns 0x00000000 (0000ms, 0721ms total)
T0D8C 001:717 JLINK_WriteReg(R0, 0x00008000)  returns 0x00 (0000ms, 0721ms total)
T0D8C 001:717 JLINK_WriteReg(R1, 0x00001000)  returns 0x00 (0000ms, 0721ms total)
T0D8C 001:717 JLINK_WriteReg(R2, 0x000000FF)  returns 0x00 (0000ms, 0721ms total)
T0D8C 001:717 JLINK_WriteReg(R3, 0x00000000)  returns 0x00 (0000ms, 0721ms total)
T0D8C 001:717 JLINK_WriteReg(R4, 0x00000000)  returns 0x00 (0000ms, 0721ms total)
T0D8C 001:717 JLINK_WriteReg(R5, 0x00000000)  returns 0x00 (0000ms, 0721ms total)
T0D8C 001:717 JLINK_WriteReg(R6, 0x00000000)  returns 0x00 (0000ms, 0721ms total)
T0D8C 001:717 JLINK_WriteReg(R7, 0x00000000)  returns 0x00 (0000ms, 0721ms total)
T0D8C 001:717 JLINK_WriteReg(R8, 0x00000000)  returns 0x00 (0000ms, 0721ms total)
T0D8C 001:717 JLINK_WriteReg(R9, 0x100001D0)  returns 0x00 (0000ms, 0721ms total)
T0D8C 001:717 JLINK_WriteReg(R10, 0x00000000)  returns 0x00 (0000ms, 0721ms total)
T0D8C 001:717 JLINK_WriteReg(R11, 0x00000000)  returns 0x00 (0000ms, 0721ms total)
T0D8C 001:717 JLINK_WriteReg(R12, 0x00000000)  returns 0x00 (0000ms, 0721ms total)
T0D8C 001:717 JLINK_WriteReg(R13 (SP), 0x10000800)  returns 0x00 (0000ms, 0721ms total)
T0D8C 001:717 JLINK_WriteReg(R14, 0x10000001)  returns 0x00 (0000ms, 0721ms total)
T0D8C 001:717 JLINK_WriteReg(R15 (PC), 0x10000020)  returns 0x00 (0000ms, 0721ms total)
T0D8C 001:717 JLINK_WriteReg(XPSR, 0x01000000)  returns 0x00 (0000ms, 0721ms total)
T0D8C 001:717 JLINK_WriteReg(MSP, 0x10000800)  returns 0x00 (0001ms, 0722ms total)
T0D8C 001:718 JLINK_WriteReg(PSP, 0x10000800)  returns 0x00 (0000ms, 0722ms total)
T0D8C 001:718 JLINK_WriteReg(CFBP, 0x00000000)  returns 0x00 (0000ms, 0722ms total)
T0D8C 001:718 JLINK_SetBPEx(Addr = 0x10000000, Type = 0xFFFFFFF2)  returns 0x00000012 (0000ms, 0722ms total)
T0D8C 001:718 JLINK_Go() (0002ms, 0724ms total)
